! Touchstone file generated from multi-VNA scan
! One file containing all VNAS, see VNA comments below
# Hz S RI R 50
50000000 1.0010410547e+00 2.8683990240e-03 -1.4162960938e+04 1.9264807129e+03 0.0000000000e+00 0.0000000000e+00 0.0000000000e+00 0.0000000000e+00
50850000 1.0005486012e+00 3.1059021130e-03 -1.4336103516e+04 1.0838796387e+03 0.0000000000e+00 0.0000000000e+00 0.0000000000e+00 0.0000000000e+00
51700000 1.0006747246e+00 2.6954752393e-03 -1.4521897461e+04 2.4331494141e+02 0.0000000000e+00 0.0000000000e+00 0.0000000000e+00 0.0000000000e+00
52550000 1.0008963346e+00 2.7757987846e-03 -1.4722003906e+04 -5.9489257812e+02 0.0000000000e+00 0.0000000000e+00 0.0000000000e+00 0.0000000000e+00
53400000 1.0008548498e+00 2.8267528396e-03 -1.4932865234e+04 -1.4274462891e+03 0.0000000000e+00 0.0000000000e+00 0.0000000000e+00 0.0000000000e+00
54250000 1.0008084774e+00 2.7872265782e-03 -1.5162759766e+04 -2.2579765625e+03 0.0000000000e+00 0.0000000000e+00 0.0000000000e+00 0.0000000000e+00
55100000 1.0008447170e+00 2.7094781399e-03 -1.5403952148e+04 -3.0866445312e+03 0.0000000000e+00 0.0000000000e+00 0.0000000000e+00 0.0000000000e+00
55950000 1.0006765127e+00 2.6395013556e-03 -1.5658008789e+04 -3.9115859375e+03 0.0000000000e+00 0.0000000000e+00 0.0000000000e+00 0.0000000000e+00
56800000 1.0006960630e+00 2.4081375450e-03 -1.5926699219e+04 -4.7330039062e+03 0.0000000000e+00 0.0000000000e+00 0.0000000000e+00 0.0000000000e+00
57650000 1.0007750988e+00 2.4562682956e-03 -1.6208345703e+04 -5.5505991211e+03 0.0000000000e+00 0.0000000000e+00 0.0000000000e+00 0.0000000000e+00
58500000 1.0007158518e+00 2.1735720802e-03 -1.6505169922e+04 -6.3656445312e+03 0.0000000000e+00 0.0000000000e+00 0.0000000000e+00 0.0000000000e+00
59350000 1.0005670786e+00 2.1514683031e-03 -1.6814765625e+04 -7.1784335938e+03 0.0000000000e+00 0.0000000000e+00 0.0000000000e+00 0.0000000000e+00
60200000 1.0005662441e+00 1.8198629841e-03 -1.6760093750e+04 -7.8438256836e+03 0.0000000000e+00 0.0000000000e+00 0.0000000000e+00 0.0000000000e+00
61050000 1.0006898642e+00 2.0808372647e-03 -1.5471875000e+04 -8.0624067383e+03 0.0000000000e+00 0.0000000000e+00 0.0000000000e+00 0.0000000000e+00
61900000 1.0006021261e+00 2.1591144614e-03 -1.4191708984e+04 -8.2983339844e+03 0.0000000000e+00 0.0000000000e+00 0.0000000000e+00 0.0000000000e+00
62750000 1.0007433891e+00 2.1056910045e-03 -1.2917156250e+04 -8.5562597656e+03 0.0000000000e+00 0.0000000000e+00 0.0000000000e+00 0.0000000000e+00
63600000 1.0008847713e+00 2.1744656842e-03 -1.1651552734e+04 -8.8309804688e+03 0.0000000000e+00 0.0000000000e+00 0.0000000000e+00 0.0000000000e+00
64450000 1.0008354187e+00 2.2729849443e-03 -1.0388248047e+04 -9.1276103516e+03 0.0000000000e+00 0.0000000000e+00 0.0000000000e+00 0.0000000000e+00
65300000 1.0008221865e+00 2.1168529056e-03 -9.1348769531e+03 -9.4416308594e+03 0.0000000000e+00 0.0000000000e+00 0.0000000000e+00 0.0000000000e+00
66150000 1.0009701252e+00 2.2452315316e-03 -7.8875478516e+03 -9.7760576172e+03 0.0000000000e+00 0.0000000000e+00 0.0000000000e+00 0.0000000000e+00
67000000 1.0008937120e+00 2.3971081246e-03 -6.6476879883e+03 -1.0128980469e+04 0.0000000000e+00 0.0000000000e+00 0.0000000000e+00 0.0000000000e+00
67850000 1.0009670258e+00 2.4014532100e-03 -5.4133623047e+03 -1.0500545898e+04 0.0000000000e+00 0.0000000000e+00 0.0000000000e+00 0.0000000000e+00
68700000 1.0008987188e+00 2.3560537957e-03 -4.1853974609e+03 -1.0892829102e+04 0.0000000000e+00 0.0000000000e+00 0.0000000000e+00 0.0000000000e+00
69550000 1.0009986162e+00 2.3982978892e-03 -2.9651733398e+03 -1.1304702148e+04 0.0000000000e+00 0.0000000000e+00 0.0000000000e+00 0.0000000000e+00
70400000 1.0010130405e+00 2.3557071108e-03 -1.7519472656e+03 -1.1735306641e+04 0.0000000000e+00 0.0000000000e+00 0.0000000000e+00 0.0000000000e+00
71250000 1.0007561445e+00 2.2549747955e-03 -5.4226416016e+02 -1.2184655273e+04 0.0000000000e+00 0.0000000000e+00 0.0000000000e+00 0.0000000000e+00
72100000 1.0008339882e+00 2.1548199002e-03 6.5712988281e+02 -1.2652587891e+04 0.0000000000e+00 0.0000000000e+00 0.0000000000e+00 0.0000000000e+00
72950000 1.0006783009e+00 2.3088343441e-03 1.8505961914e+03 -1.3142066406e+04 0.0000000000e+00 0.0000000000e+00 0.0000000000e+00 0.0000000000e+00
73800000 1.0007359982e+00 2.1784568671e-03 3.0378818359e+03 -1.3649361328e+04 0.0000000000e+00 0.0000000000e+00 0.0000000000e+00 0.0000000000e+00
74650000 1.0008488894e+00 2.1781600080e-03 4.2184365234e+03 -1.4176463867e+04 0.0000000000e+00 0.0000000000e+00 0.0000000000e+00 0.0000000000e+00
75500000 1.0006790161e+00 2.0118262619e-03 4.8356474609e+03 -1.4061933594e+04 0.0000000000e+00 0.0000000000e+00 0.0000000000e+00 0.0000000000e+00
76350000 1.0008209944e+00 1.9678568933e-03 5.0633818359e+03 -1.3488531250e+04 0.0000000000e+00 0.0000000000e+00 0.0000000000e+00 0.0000000000e+00
77200000 1.0009125471e+00 1.9502816722e-03 5.3011250000e+03 -1.2922283203e+04 0.0000000000e+00 0.0000000000e+00 0.0000000000e+00 0.0000000000e+00
78050000 1.0009145737e+00 2.1756715141e-03 5.5442939453e+03 -1.2358890625e+04 0.0000000000e+00 0.0000000000e+00 0.0000000000e+00 0.0000000000e+00
78900000 1.0009227991e+00 2.2681024857e-03 5.7974155273e+03 -1.1803460938e+04 0.0000000000e+00 0.0000000000e+00 0.0000000000e+00 0.0000000000e+00
79750000 1.0008418560e+00 2.2579103243e-03 6.0593320312e+03 -1.1252027344e+04 0.0000000000e+00 0.0000000000e+00 0.0000000000e+00 0.0000000000e+00
80600000 1.0010353327e+00 2.3781021591e-03 6.3289409180e+03 -1.0707798828e+04 0.0000000000e+00 0.0000000000e+00 0.0000000000e+00 0.0000000000e+00
81450000 1.0010590553e+00 2.3360978812e-03 6.6067353516e+03 -1.0169512695e+04 0.0000000000e+00 0.0000000000e+00 0.0000000000e+00 0.0000000000e+00
82300000 1.0009661913e+00 2.3235885892e-03 6.8939863281e+03 -9.6349892578e+03 0.0000000000e+00 0.0000000000e+00 0.0000000000e+00 0.0000000000e+00
83150000 1.0010764599e+00 2.2374619730e-03 7.1891557617e+03 -9.1077246094e+03 0.0000000000e+00 0.0000000000e+00 0.0000000000e+00 0.0000000000e+00
84000000 1.0008004904e+00 2.2910067346e-03 7.4917773438e+03 -8.5841093750e+03 0.0000000000e+00 0.0000000000e+00 0.0000000000e+00 0.0000000000e+00
84850000 1.0009762049e+00 2.1885498427e-03 7.8049453125e+03 -8.0671796875e+03 0.0000000000e+00 0.0000000000e+00 0.0000000000e+00 0.0000000000e+00
85700000 1.0010564327e+00 2.2112161387e-03 8.1251010742e+03 -7.5548657227e+03 0.0000000000e+00 0.0000000000e+00 0.0000000000e+00 0.0000000000e+00
86550000 1.0010000467e+00 2.2625406273e-03 8.4539531250e+03 -7.0506738281e+03 0.0000000000e+00 0.0000000000e+00 0.0000000000e+00 0.0000000000e+00
87400000 1.0008199215e+00 2.1987496875e-03 8.7907119141e+03 -6.5490288086e+03 0.0000000000e+00 0.0000000000e+00 0.0000000000e+00 0.0000000000e+00
88250000 1.0007437468e+00 2.2724510636e-03 9.1373662109e+03 -6.0537802734e+03 0.0000000000e+00 0.0000000000e+00 0.0000000000e+00 0.0000000000e+00
89100000 1.0007090569e+00 2.2317497060e-03 9.4899248047e+03 -5.5649531250e+03 0.0000000000e+00 0.0000000000e+00 0.0000000000e+00 0.0000000000e+00
89950000 1.0006253719e+00 2.1030872595e-03 9.8532949219e+03 -5.0822680664e+03 0.0000000000e+00 0.0000000000e+00 0.0000000000e+00 0.0000000000e+00
90800000 1.0008367300e+00 2.1996351425e-03 9.9609472656e+03 -5.8339931641e+03 0.0000000000e+00 0.0000000000e+00 0.0000000000e+00 0.0000000000e+00
91650000 1.0007524490e+00 2.1314418409e-03 1.0038923828e+04 -6.6654409180e+03 0.0000000000e+00 0.0000000000e+00 0.0000000000e+00 0.0000000000e+00
92500000 1.0008256435e+00 2.2233005147e-03 1.0108171875e+04 -7.4969799805e+03 0.0000000000e+00 0.0000000000e+00 0.0000000000e+00 0.0000000000e+00
93350000 1.0009472370e+00 2.3125885054e-03 1.0165222656e+04 -8.3308984375e+03 0.0000000000e+00 0.0000000000e+00 0.0000000000e+00 0.0000000000e+00
94200000 1.0008621216e+00 2.1244164091e-03 1.0210620117e+04 -9.1660810547e+03 0.0000000000e+00 0.0000000000e+00 0.0000000000e+00 0.0000000000e+00
95050000 1.0008128881e+00 2.3550910410e-03 1.0246693359e+04 -1.0002424805e+04 0.0000000000e+00 0.0000000000e+00 0.0000000000e+00 0.0000000000e+00
95900000 1.0008348227e+00 2.0034555346e-03 1.0269105469e+04 -1.0838705078e+04 0.0000000000e+00 0.0000000000e+00 0.0000000000e+00 0.0000000000e+00
96750000 1.0011020899e+00 2.0768376999e-03 1.0280485352e+04 -1.1675335938e+04 0.0000000000e+00 0.0000000000e+00 0.0000000000e+00 0.0000000000e+00
97600000 1.0009526014e+00 2.2376580164e-03 1.0280415039e+04 -1.2516718750e+04 0.0000000000e+00 0.0000000000e+00 0.0000000000e+00 0.0000000000e+00
98450000 1.0010064840e+00 2.4089657236e-03 1.0269801758e+04 -1.3355885742e+04 0.0000000000e+00 0.0000000000e+00 0.0000000000e+00 0.0000000000e+00
99300000 1.0009230375e+00 2.1197944880e-03 1.0248747070e+04 -1.4195925781e+04 0.0000000000e+00 0.0000000000e+00 0.0000000000e+00 0.0000000000e+00
100150000 1.0010358095e+00 2.1175157744e-03 1.0214204102e+04 -1.5040832031e+04 0.0000000000e+00 0.0000000000e+00 0.0000000000e+00 0.0000000000e+00
101000000 1.0009120703e+00 2.2378882859e-03 1.0169888672e+04 -1.5880532227e+04 0.0000000000e+00 0.0000000000e+00 0.0000000000e+00 0.0000000000e+00
101850000 1.0008542538e+00 2.2563624661e-03 1.0115417969e+04 -1.6726376953e+04 0.0000000000e+00 0.0000000000e+00 0.0000000000e+00 0.0000000000e+00
102700000 1.0007805824e+00 2.1616499871e-03 1.0047748047e+04 -1.7570314453e+04 0.0000000000e+00 0.0000000000e+00 0.0000000000e+00 0.0000000000e+00
103550000 1.0006955862e+00 2.1413983777e-03 9.9696425781e+03 -1.8415722656e+04 0.0000000000e+00 0.0000000000e+00 0.0000000000e+00 0.0000000000e+00
104400000 1.0007367134e+00 2.3438893259e-03 9.8796855469e+03 -1.9263585938e+04 0.0000000000e+00 0.0000000000e+00 0.0000000000e+00 0.0000000000e+00
105250000 1.0006604195e+00 2.4579199962e-03 9.7789921875e+03 -2.0112562500e+04 0.0000000000e+00 0.0000000000e+00 0.0000000000e+00 0.0000000000e+00
106100000 1.0005688667e+00 2.6080368552e-03 9.6653750000e+03 -2.0961476562e+04 0.0000000000e+00 0.0000000000e+00 0.0000000000e+00 0.0000000000e+00
106950000 1.0005168915e+00 2.8621635865e-03 9.5442539062e+03 -2.1812613281e+04 0.0000000000e+00 0.0000000000e+00 0.0000000000e+00 0.0000000000e+00
107800000 1.0003994703e+00 3.1178712379e-03 9.4071269531e+03 -2.2661126953e+04 0.0000000000e+00 0.0000000000e+00 0.0000000000e+00 0.0000000000e+00
108650000 1.0003094673e+00 3.3596684225e-03 9.2634511719e+03 -2.3515578125e+04 0.0000000000e+00 0.0000000000e+00 0.0000000000e+00 0.0000000000e+00
109500000 1.0002789497e+00 3.4940210171e-03 9.1024882812e+03 -2.4369306641e+04 0.0000000000e+00 0.0000000000e+00 0.0000000000e+00 0.0000000000e+00
110350000 1.0001459122e+00 3.8580726832e-03 8.9346093750e+03 -2.5225072266e+04 0.0000000000e+00 0.0000000000e+00 0.0000000000e+00 0.0000000000e+00
111200000 1.0001180172e+00 4.0085199289e-03 8.7563339844e+03 -2.6076443359e+04 0.0000000000e+00 0.0000000000e+00 0.0000000000e+00 0.0000000000e+00
112050000 9.9974453449e-01 4.1685453616e-03 8.5657070312e+03 -2.6934597656e+04 0.0000000000e+00 0.0000000000e+00 0.0000000000e+00 0.0000000000e+00
112900000 9.9972409010e-01 4.5365882106e-03 8.3613652344e+03 -2.7792335938e+04 0.0000000000e+00 0.0000000000e+00 0.0000000000e+00 0.0000000000e+00
113750000 9.9948143959e-01 4.5567420311e-03 8.1468701172e+03 -2.8649794922e+04 0.0000000000e+00 0.0000000000e+00 0.0000000000e+00 0.0000000000e+00
114600000 9.9927604198e-01 4.8988400958e-03 7.9205810547e+03 -2.9511488281e+04 0.0000000000e+00 0.0000000000e+00 0.0000000000e+00 0.0000000000e+00
115450000 9.9938571453e-01 4.9441419542e-03 7.6895078125e+03 -3.0370169922e+04 0.0000000000e+00 0.0000000000e+00 0.0000000000e+00 0.0000000000e+00
116300000 9.9912959337e-01 5.2743069828e-03 7.4390595703e+03 -3.1229955078e+04 0.0000000000e+00 0.0000000000e+00 0.0000000000e+00 0.0000000000e+00
117150000 9.9887061119e-01 5.4877330549e-03 7.1801015625e+03 -3.2094089844e+04 0.0000000000e+00 0.0000000000e+00 0.0000000000e+00 0.0000000000e+00
118000000 9.9850106239e-01 5.8145243675e-03 6.9118750000e+03 -3.2961292969e+04 0.0000000000e+00 0.0000000000e+00 0.0000000000e+00 0.0000000000e+00
118850000 9.9855262041e-01 6.0917036608e-03 6.6344082031e+03 -3.3827621094e+04 0.0000000000e+00 0.0000000000e+00 0.0000000000e+00 0.0000000000e+00
119700000 9.9844396114e-01 6.2362044118e-03 6.3344355469e+03 -3.4689218750e+04 0.0000000000e+00 0.0000000000e+00 0.0000000000e+00 0.0000000000e+00
120550000 9.9998021126e-01 2.5138368364e-03 -2.6050798340e+03 -8.2207822266e+03 0.0000000000e+00 0.0000000000e+00 0.0000000000e+00 0.0000000000e+00
121400000 9.9872678518e-01 2.2512087598e-03 -3.0760075684e+03 -8.3935673828e+03 0.0000000000e+00 0.0000000000e+00 0.0000000000e+00 0.0000000000e+00
122250000 9.9810200930e-01 2.3783962242e-03 -3.5493574219e+03 -8.5601406250e+03 0.0000000000e+00 0.0000000000e+00 0.0000000000e+00 0.0000000000e+00
123100000 9.9051320553e-01 -9.8811266071e-05 -4.0251738281e+03 -8.7200546875e+03 0.0000000000e+00 0.0000000000e+00 0.0000000000e+00 0.0000000000e+00
123950000 9.9275916815e-01 1.6049703117e-03 -4.5021376953e+03 -8.8740947266e+03 0.0000000000e+00 0.0000000000e+00 0.0000000000e+00 0.0000000000e+00
124800000 9.9984395504e-01 1.9964149687e-03 -4.9829365234e+03 -9.0219804688e+03 0.0000000000e+00 0.0000000000e+00 0.0000000000e+00 0.0000000000e+00
125650000 9.9944078922e-01 2.3298820015e-03 -5.4654716797e+03 -9.1642832031e+03 0.0000000000e+00 0.0000000000e+00 0.0000000000e+00 0.0000000000e+00
126500000 1.0011284351e+00 2.5710044429e-03 -5.9501069336e+03 -9.2985839844e+03 0.0000000000e+00 0.0000000000e+00 0.0000000000e+00 0.0000000000e+00
127350000 9.9995863438e-01 2.2393565159e-03 -6.4377685547e+03 -9.4285185547e+03 0.0000000000e+00 0.0000000000e+00 0.0000000000e+00 0.0000000000e+00
128200000 1.0002374649e+00 2.3185233586e-03 -6.9272255859e+03 -9.5511210938e+03 0.0000000000e+00 0.0000000000e+00 0.0000000000e+00 0.0000000000e+00
129050000 9.9993884563e-01 2.4477182887e-03 -7.4196308594e+03 -9.6679628906e+03 0.0000000000e+00 0.0000000000e+00 0.0000000000e+00 0.0000000000e+00
129900000 9.9354296923e-01 2.5405930355e-03 -7.9134135742e+03 -9.7782207031e+03 0.0000000000e+00 0.0000000000e+00 0.0000000000e+00 0.0000000000e+00
130750000 1.0000708103e+00 2.4417734239e-03 -8.4099287109e+03 -9.8825859375e+03 0.0000000000e+00 0.0000000000e+00 0.0000000000e+00 0.0000000000e+00
131600000 1.0008850098e+00 2.6278751902e-03 -8.9091708984e+03 -9.9798300781e+03 0.0000000000e+00 0.0000000000e+00 0.0000000000e+00 0.0000000000e+00
132450000 1.0006977320e+00 3.0429656617e-03 -9.4101142578e+03 -1.0072463867e+04 0.0000000000e+00 0.0000000000e+00 0.0000000000e+00 0.0000000000e+00
133300000 1.0034315586e+00 2.5670256000e-03 -9.9142177734e+03 -1.0157869141e+04 0.0000000000e+00 0.0000000000e+00 0.0000000000e+00 0.0000000000e+00
134150000 1.0005598068e+00 3.1247220468e-03 -1.0420210938e+04 -1.0236577148e+04 0.0000000000e+00 0.0000000000e+00 0.0000000000e+00 0.0000000000e+00
135000000 1.0007642508e+00 3.0943315942e-03 -1.0927898438e+04 -1.0309862305e+04 0.0000000000e+00 0.0000000000e+00 0.0000000000e+00 0.0000000000e+00
135000000 1.0009464025e+00 3.1054904684e-03 -1.0927769531e+04 -1.0310443359e+04 0.0000000000e+00 0.0000000000e+00 0.0000000000e+00 0.0000000000e+00
135850000 9.9951875210e-01 3.4275541548e-03 -9.9595488281e+03 -9.7696201172e+03 0.0000000000e+00 0.0000000000e+00 0.0000000000e+00 0.0000000000e+00
136700000 9.9591284990e-01 2.4344981648e-03 -8.9832441406e+03 -9.2435810547e+03 0.0000000000e+00 0.0000000000e+00 0.0000000000e+00 0.0000000000e+00
137550000 1.0010881424e+00 3.3258199692e-03 -8.0012065430e+03 -8.7331865234e+03 0.0000000000e+00 0.0000000000e+00 0.0000000000e+00 0.0000000000e+00
138400000 1.0011349916e+00 3.3849286847e-03 -7.0140410156e+03 -8.2369648438e+03 0.0000000000e+00 0.0000000000e+00 0.0000000000e+00 0.0000000000e+00
139250000 1.0015648603e+00 3.0846542213e-03 -6.0214941406e+03 -7.7566718750e+03 0.0000000000e+00 0.0000000000e+00 0.0000000000e+00 0.0000000000e+00
140100000 1.0017379522e+00 3.0818604864e-03 -5.0227431641e+03 -7.2921367188e+03 0.0000000000e+00 0.0000000000e+00 0.0000000000e+00 0.0000000000e+00
140950000 1.0014302731e+00 3.1785757747e-03 -4.0190053711e+03 -6.8427792969e+03 0.0000000000e+00 0.0000000000e+00 0.0000000000e+00 0.0000000000e+00
141800000 1.0018438101e+00 2.9973562341e-03 -3.0092841797e+03 -6.4086767578e+03 0.0000000000e+00 0.0000000000e+00 0.0000000000e+00 0.0000000000e+00
142650000 9.9333256483e-01 3.2637473196e-03 -1.9945836182e+03 -5.9899624023e+03 0.0000000000e+00 0.0000000000e+00 0.0000000000e+00 0.0000000000e+00
143500000 9.9957907200e-01 3.0858183745e-03 -9.7417199707e+02 -5.5864785156e+03 0.0000000000e+00 0.0000000000e+00 0.0000000000e+00 0.0000000000e+00
144350000 1.0019446611e+00 3.1385694165e-03 5.2222167969e+01 -5.1983593750e+03 0.0000000000e+00 0.0000000000e+00 0.0000000000e+00 0.0000000000e+00
145200000 1.0019272566e+00 3.0756806955e-03 1.0835985107e+03 -4.8255830078e+03 0.0000000000e+00 0.0000000000e+00 0.0000000000e+00 0.0000000000e+00
146050000 1.0035413504e+00 2.5381930172e-03 2.1206892090e+03 -4.4679604492e+03 0.0000000000e+00 0.0000000000e+00 0.0000000000e+00 0.0000000000e+00
146900000 1.0022183657e+00 3.0859501567e-03 3.1631687012e+03 -4.1259296875e+03 0.0000000000e+00 0.0000000000e+00 0.0000000000e+00 0.0000000000e+00
147750000 1.0025998354e+00 3.1249984168e-03 4.2114736328e+03 -3.7991284180e+03 0.0000000000e+00 0.0000000000e+00 0.0000000000e+00 0.0000000000e+00
148600000 1.0021691322e+00 3.2648146152e-03 5.2649575195e+03 -3.4871386719e+03 0.0000000000e+00 0.0000000000e+00 0.0000000000e+00 0.0000000000e+00
149450000 1.0006697178e+00 3.3168541268e-03 6.3245395508e+03 -3.1911281738e+03 0.0000000000e+00 0.0000000000e+00 0.0000000000e+00 0.0000000000e+00
150300000 1.0035980940e+00 3.0703109223e-03 6.8904946289e+03 -3.1122863770e+03 0.0000000000e+00 0.0000000000e+00 0.0000000000e+00 0.0000000000e+00
151150000 1.0025790930e+00 3.2647908665e-03 6.5357158203e+03 -3.4070703125e+03 0.0000000000e+00 0.0000000000e+00 0.0000000000e+00 0.0000000000e+00
152000000 1.0023621321e+00 3.4201042727e-03 6.1776767578e+03 -3.6968798828e+03 0.0000000000e+00 0.0000000000e+00 0.0000000000e+00 0.0000000000e+00
152850000 1.0026912689e+00 2.8599502984e-03 5.8163579102e+03 -3.9818310547e+03 0.0000000000e+00 0.0000000000e+00 0.0000000000e+00 0.0000000000e+00
153700000 1.0021071434e+00 3.3891431522e-03 5.4525327148e+03 -4.2620415039e+03 0.0000000000e+00 0.0000000000e+00 0.0000000000e+00 0.0000000000e+00
154550000 1.0018831491e+00 3.5450838041e-03 5.0851533203e+03 -4.5373144531e+03 0.0000000000e+00 0.0000000000e+00 0.0000000000e+00 0.0000000000e+00
155400000 1.0017716885e+00 3.4618105274e-03 4.7144047852e+03 -4.8075415039e+03 0.0000000000e+00 0.0000000000e+00 0.0000000000e+00 0.0000000000e+00
156250000 9.9960166216e-01 3.7277296651e-03 4.3408657227e+03 -5.0729555664e+03 0.0000000000e+00 0.0000000000e+00 0.0000000000e+00 0.0000000000e+00
157100000 1.0019332170e+00 3.6245905794e-03 3.9643708496e+03 -5.3333964844e+03 0.0000000000e+00 0.0000000000e+00 0.0000000000e+00 0.0000000000e+00
157950000 1.0018079281e+00 3.5609595943e-03 3.5845654297e+03 -5.5886289062e+03 0.0000000000e+00 0.0000000000e+00 0.0000000000e+00 0.0000000000e+00
158800000 1.0015430450e+00 3.6260748748e-03 3.2018225098e+03 -5.8388212891e+03 0.0000000000e+00 0.0000000000e+00 0.0000000000e+00 0.0000000000e+00
159650000 1.0016312599e+00 3.6196331494e-03 2.8152705078e+03 -6.0843808594e+03 0.0000000000e+00 0.0000000000e+00 0.0000000000e+00 0.0000000000e+00
160500000 1.0013544559e+00 3.5647284240e-03 2.4264711914e+03 -6.3250996094e+03 0.0000000000e+00 0.0000000000e+00 0.0000000000e+00 0.0000000000e+00
161350000 1.0010995865e+00 3.6004199646e-03 2.0340820312e+03 -6.5607304688e+03 0.0000000000e+00 0.0000000000e+00 0.0000000000e+00 0.0000000000e+00
162200000 9.9919885397e-01 3.9149406366e-03 1.6389567871e+03 -6.7914277344e+03 0.0000000000e+00 0.0000000000e+00 0.0000000000e+00 0.0000000000e+00
163050000 1.0005975962e+00 3.6748440471e-03 1.2403791504e+03 -7.0165781250e+03 0.0000000000e+00 0.0000000000e+00 0.0000000000e+00 0.0000000000e+00
